time	V(timing)	V(n005)
0.000000000000000e+00	0.000000e+00	3.299967e-04
1.171875096961372e-10	3.867188e-04	3.299967e-04
2.343750193922745e-10	7.734376e-04	3.299967e-04
4.687500387845489e-10	1.546875e-03	3.299967e-04
9.375000775690978e-10	3.093750e-03	3.299967e-04
1.875000155138196e-09	6.187500e-03	3.299967e-04
3.695045670425947e-09	1.219365e-02	3.299967e-04
5.553836994478891e-09	1.832766e-02	3.299967e-04
8.880151535634121e-09	2.930450e-02	3.299967e-04
1.318820598782360e-08	4.352108e-02	3.299967e-04
2.078619158371207e-08	6.859443e-02	3.299967e-04
3.141003533658925e-08	1.036531e-01	3.299967e-04
4.836809037505425e-08	1.596147e-01	3.299967e-04
7.132319747171860e-08	2.353666e-01	3.299967e-04
1.070066479660086e-07	3.531219e-01	3.299967e-04
1.433066020790321e-07	4.729118e-01	3.299967e-04
1.514944906601433e-07	4.999318e-01	3.373479e-04
1.524944906601433e-07	5.032318e-01	3.539197e-04
1.615131102493792e-07	5.329933e-01	6.440555e-04
1.667723624750816e-07	5.503488e-01	8.175698e-04
1.726556911933632e-07	5.697638e-01	1.011657e-03
1.844223486299264e-07	6.085938e-01	1.399781e-03
2.079556635030529e-07	6.862537e-01	2.175842e-03
2.550222932493059e-07	8.415736e-01	3.727210e-03
3.491555527418118e-07	1.152213e+00	6.826937e-03
5.374220717268237e-07	1.773493e+00	1.301740e-02
7.358166890876348e-07	2.428195e+00	1.952974e-02
8.775123144001465e-07	2.895791e+00	2.417297e-02
9.711022859857861e-07	3.204638e+00	2.723592e-02
1.000000000000000e-06	3.300000e+00	2.818085e-02
1.049421624549942e-06	3.300000e+00	2.979590e-02
1.100564438898500e-06	3.300000e+00	3.146630e-02
1.168247930142621e-06	3.300000e+00	3.367509e-02
1.303614912630863e-06	3.300000e+00	3.808679e-02
1.534066217283208e-06	3.300000e+00	4.558185e-02
1.853012539312351e-06	3.300000e+00	5.593206e-02
1.975373628199381e-06	3.300000e+00	5.989430e-02
2.085701483744474e-06	3.300000e+00	6.346082e-02
2.151016340934708e-06	3.300000e+00	6.556993e-02
2.248473669485835e-06	3.300000e+00	6.871340e-02
2.388099192377457e-06	3.300000e+00	7.321042e-02
2.616967723519103e-06	3.300000e+00	8.056597e-02
2.931740006453633e-06	3.300000e+00	9.064804e-02
3.485075864675308e-06	3.300000e+00	1.082644e-01
4.591747581118659e-06	3.300000e+00	1.430960e-01
6.805091014005362e-06	3.300000e+00	2.117493e-01
8.254874291712596e-06	3.300000e+00	2.559856e-01
9.461747808794470e-06	3.300000e+00	2.922560e-01
1.007984483182021e-05	3.300000e+00	3.106382e-01
1.060377211834071e-05	3.300000e+00	3.260983e-01
1.109754773056205e-05	3.300000e+00	3.405844e-01
1.157103847817456e-05	3.300000e+00	3.543934e-01
1.222984123948623e-05	3.300000e+00	3.734782e-01
1.305264965910978e-05	3.300000e+00	3.971075e-01
1.426752683445107e-05	3.300000e+00	4.315902e-01
1.583963286428977e-05	3.300000e+00	4.756676e-01
1.669648630752886e-05	3.300000e+00	4.993974e-01
1.752510269333129e-05	3.300000e+00	5.220679e-01
1.868131321399991e-05	3.300000e+00	5.533490e-01
1.991621009232676e-05	3.300000e+00	5.862932e-01
2.181647967582516e-05	3.300000e+00	6.361223e-01
2.380292212991588e-05	3.300000e+00	6.870489e-01
2.692965390003890e-05	3.300000e+00	7.648798e-01
3.069473711842836e-05	3.300000e+00	8.546183e-01
3.783922045465147e-05	3.300000e+00	1.013934e+00
4.852075361335373e-05	3.300000e+00	1.231683e+00
6.023950361335373e-05	3.300000e+00	1.445220e+00
7.195825361335372e-05	3.300000e+00	1.633505e+00
8.367700361335372e-05	3.300000e+00	1.798989e+00
9.539575361335372e-05	3.300000e+00	1.944432e+00
1.071145036133537e-04	3.300000e+00	2.072262e+00
1.188332536133537e-04	3.300000e+00	2.184612e+00
1.305520036133537e-04	3.300000e+00	2.283356e+00
1.422707536133537e-04	3.300000e+00	2.370142e+00
1.539895036133537e-04	3.300000e+00	2.446418e+00
1.657082536133537e-04	3.300000e+00	2.513458e+00
1.774270036133538e-04	3.300000e+00	2.572378e+00
1.891457536133538e-04	3.300000e+00	2.624164e+00
2.008645036133538e-04	3.300000e+00	2.669678e+00
2.125832536133538e-04	3.300000e+00	2.709680e+00
2.243020036133538e-04	3.300000e+00	2.744838e+00
2.360207536133538e-04	3.300000e+00	2.775738e+00
2.477395036133538e-04	3.300000e+00	2.802896e+00
2.594582536133538e-04	3.300000e+00	2.826766e+00
2.711770036133538e-04	3.300000e+00	2.847744e+00
2.828957536133538e-04	3.300000e+00	2.866183e+00
2.946145036133538e-04	3.300000e+00	2.882388e+00
3.063332536133538e-04	3.300000e+00	2.896631e+00
3.180520036133538e-04	3.300000e+00	2.909149e+00
3.297707536133539e-04	3.300000e+00	2.920151e+00
3.414895036133539e-04	3.300000e+00	2.929821e+00
3.532082536133539e-04	3.300000e+00	2.938320e+00
3.649270036133539e-04	3.300000e+00	2.945789e+00
3.766457536133539e-04	3.300000e+00	2.952354e+00
3.883645036133539e-04	3.300000e+00	2.958124e+00
4.000832536133539e-04	3.300000e+00	2.963195e+00
4.118020036133539e-04	3.300000e+00	2.967652e+00
4.235207536133539e-04	3.300000e+00	2.971570e+00
4.352395036133540e-04	3.300000e+00	2.975012e+00
4.469582536133540e-04	3.300000e+00	2.978038e+00
4.586770036133540e-04	3.300000e+00	2.980698e+00
4.703957536133540e-04	3.300000e+00	2.983036e+00
4.821145036133540e-04	3.300000e+00	2.985090e+00
4.938332536133540e-04	3.300000e+00	2.986896e+00
5.055520036133540e-04	3.300000e+00	2.988482e+00
5.172707536133540e-04	3.300000e+00	2.989877e+00
5.289895036133540e-04	3.300000e+00	2.991103e+00
5.407082536133540e-04	3.300000e+00	2.992180e+00
5.524270036133541e-04	3.300000e+00	2.993127e+00
5.641457536133541e-04	3.300000e+00	2.993960e+00
5.758645036133541e-04	3.300000e+00	2.994691e+00
5.875832536133541e-04	3.300000e+00	2.995334e+00
5.993020036133541e-04	3.300000e+00	2.995899e+00
6.110207536133541e-04	3.300000e+00	2.996396e+00
6.227395036133541e-04	3.300000e+00	2.996832e+00
6.344582536133541e-04	3.300000e+00	2.997216e+00
6.461770036133541e-04	3.300000e+00	2.997553e+00
6.578957536133542e-04	3.300000e+00	2.997849e+00
6.696145036133542e-04	3.300000e+00	2.998110e+00
6.813332536133542e-04	3.300000e+00	2.998338e+00
6.930520036133542e-04	3.300000e+00	2.998540e+00
7.047707536133542e-04	3.300000e+00	2.998716e+00
7.164895036133542e-04	3.300000e+00	2.998872e+00
7.282082536133542e-04	3.300000e+00	2.999008e+00
7.399270036133542e-04	3.300000e+00	2.999129e+00
7.516457536133542e-04	3.300000e+00	2.999234e+00
7.633645036133542e-04	3.300000e+00	2.999327e+00
7.750832536133543e-04	3.300000e+00	2.999408e+00
7.868020036133543e-04	3.300000e+00	2.999480e+00
7.985207536133543e-04	3.300000e+00	2.999543e+00
8.102395036133543e-04	3.300000e+00	2.999598e+00
8.219582536133543e-04	3.300000e+00	2.999647e+00
8.336770036133543e-04	3.300000e+00	2.999690e+00
8.453957536133543e-04	3.300000e+00	2.999727e+00
8.571145036133543e-04	3.300000e+00	2.999760e+00
8.688332536133543e-04	3.300000e+00	2.999789e+00
8.805520036133543e-04	3.300000e+00	2.999815e+00
8.922707536133544e-04	3.300000e+00	2.999837e+00
9.039895036133544e-04	3.300000e+00	2.999857e+00
9.157082536133544e-04	3.300000e+00	2.999874e+00
9.274270036133544e-04	3.300000e+00	2.999889e+00
9.391457536133544e-04	3.300000e+00	2.999903e+00
9.508645036133544e-04	3.300000e+00	2.999914e+00
9.625832536133544e-04	3.300000e+00	2.999925e+00
9.860207536133544e-04	3.300000e+00	2.999942e+00
1.009458253613354e-03	3.300000e+00	2.999955e+00
1.032895753613354e-03	3.300000e+00	2.999965e+00
1.056333253613355e-03	3.300000e+00	2.999973e+00
1.091489503613355e-03	3.300000e+00	2.999982e+00
1.126645753613355e-03	3.300000e+00	2.999987e+00
1.151757360756212e-03	3.300000e+00	2.999990e+00
1.176868967899069e-03	3.300000e+00	2.999993e+00
1.201980575041926e-03	3.300000e+00	2.999994e+00
1.227092182184783e-03	3.300000e+00	2.999996e+00
1.252203789327640e-03	3.300000e+00	2.999997e+00
1.277315396470498e-03	3.300000e+00	2.999998e+00
1.302427003613355e-03	3.300000e+00	2.999998e+00
1.362694860756212e-03	3.300000e+00	2.999998e+00
1.422962717899069e-03	3.300000e+00	2.999999e+00
1.483230575041926e-03	3.300000e+00	2.999999e+00
1.543498432184784e-03	3.300000e+00	3.000000e+00
1.603766289327641e-03	3.300000e+00	3.000000e+00
1.664034146470498e-03	3.300000e+00	3.000000e+00
1.724302003613355e-03	3.300000e+00	3.000000e+00
5.989927003613281e-03	3.300000e+00	3.000000e+00
6.001000000000000e-03	3.300000e+00	3.000000e+00
6.001048160568047e-03	3.141070e+00	3.000000e+00
6.001144481704139e-03	2.823210e+00	3.000000e+00
6.001191117407167e-03	2.669312e+00	3.000000e+00
6.001239430294902e-03	2.509880e+00	3.000000e+00
6.001290368631084e-03	2.341784e+00	3.000000e+00
6.001343248954397e-03	2.167279e+00	3.000000e+00
6.001400021497573e-03	1.979929e+00	3.000000e+00
6.001465022670210e-03	1.765425e+00	3.000000e+00
6.001533032290305e-03	1.540993e+00	3.000000e+00
6.001601946720096e-03	1.313576e+00	3.000000e+00
6.001673256859233e-03	1.078252e+00	3.000000e+00
6.001751042432940e-03	8.215600e-01	3.000000e+00
6.001796580831928e-03	6.712832e-01	3.000000e+00
6.001825209448895e-03	5.768088e-01	3.000000e+00
6.001840790525779e-03	5.253913e-01	3.000000e+00
6.001848484791311e-03	5.000002e-01	2.999999e+00
6.001849484791311e-03	4.967002e-01	2.999998e+00
6.001851429581297e-03	4.902824e-01	2.999992e+00
6.001854070973517e-03	4.815658e-01	2.999985e+00
6.001856773341319e-03	4.726480e-01	2.999976e+00
6.001862178076922e-03	4.548123e-01	2.999960e+00
6.001872987548130e-03	4.191411e-01	2.999928e+00
6.001894606490545e-03	3.477986e-01	2.999863e+00
6.001937844375375e-03	2.051136e-01	2.999733e+00
6.002000000000000e-03	0.000000e+00	2.999547e+00
6.002028300202467e-03	0.000000e+00	2.999462e+00
6.002049498732784e-03	0.000000e+00	2.999398e+00
6.002058971860458e-03	0.000000e+00	2.999370e+00
6.002071511887279e-03	0.000000e+00	2.999332e+00
6.002081348726556e-03	0.000000e+00	2.999303e+00
6.002092662452393e-03	0.000000e+00	2.999269e+00
6.002106397075062e-03	0.000000e+00	2.999228e+00
6.002123598489530e-03	0.000000e+00	2.999176e+00
6.002140635148724e-03	0.000000e+00	2.999125e+00
6.002156857385071e-03	0.000000e+00	2.999076e+00
6.002173197273167e-03	0.000000e+00	2.999027e+00
6.002193203590877e-03	0.000000e+00	2.998967e+00
6.002217488177505e-03	0.000000e+00	2.998894e+00
6.002248986760524e-03	0.000000e+00	2.998800e+00
6.002292389698892e-03	0.000000e+00	2.998670e+00
6.002355403327489e-03	0.000000e+00	2.998481e+00
6.002469759229214e-03	0.000000e+00	2.998138e+00
6.004070741853365e-03	0.000000e+00	2.993343e+00
6.005900436280964e-03	0.000000e+00	2.987875e+00
6.009559825136164e-03	0.000000e+00	2.976976e+00
6.016878602846562e-03	0.000000e+00	2.955312e+00
6.028597352846562e-03	0.000000e+00	2.920919e+00
6.040316102846562e-03	0.000000e+00	2.886889e+00
6.052034852846561e-03	0.000000e+00	2.853256e+00
6.063753602846561e-03	0.000000e+00	2.820015e+00
6.075472352846560e-03	0.000000e+00	2.787161e+00
6.087191102846560e-03	0.000000e+00	2.754690e+00
6.098909852846559e-03	0.000000e+00	2.722597e+00
6.122347352846559e-03	0.000000e+00	2.659529e+00
6.145784852846558e-03	0.000000e+00	2.597922e+00
6.169222352846557e-03	0.000000e+00	2.537742e+00
6.192659852846556e-03	0.000000e+00	2.478956e+00
6.216097352846555e-03	0.000000e+00	2.421533e+00
6.227816102846555e-03	0.000000e+00	2.393322e+00
6.239534852846554e-03	0.000000e+00	2.365439e+00
6.251253602846554e-03	0.000000e+00	2.337882e+00
6.262972352846554e-03	0.000000e+00	2.310646e+00
6.274691102846553e-03	0.000000e+00	2.283727e+00
6.286409852846553e-03	0.000000e+00	2.257121e+00
6.298128602846552e-03	0.000000e+00	2.230826e+00
6.309847352846552e-03	0.000000e+00	2.204837e+00
6.321566102846551e-03	0.000000e+00	2.179151e+00
6.333284852846551e-03	0.000000e+00	2.153764e+00
6.345003602846551e-03	0.000000e+00	2.128673e+00
6.356722352846550e-03	0.000000e+00	2.103874e+00
6.368441102846550e-03	0.000000e+00	2.079365e+00
6.380159852846549e-03	0.000000e+00	2.055140e+00
6.391878602846549e-03	0.000000e+00	2.031199e+00
6.403597352846548e-03	0.000000e+00	2.007536e+00
6.415316102846548e-03	0.000000e+00	1.984149e+00
6.427034852846548e-03	0.000000e+00	1.961034e+00
6.438753602846547e-03	0.000000e+00	1.938188e+00
6.450472352846547e-03	0.000000e+00	1.915609e+00
6.462191102846546e-03	0.000000e+00	1.893293e+00
6.473909852846546e-03	0.000000e+00	1.871203e+00
6.479516675431203e-03	0.000000e+00	1.860719e+00
6.482654534923956e-03	0.000000e+00	1.854886e+00
6.485156193060373e-03	0.000000e+00	1.850251e+00
6.488035513796214e-03	0.000000e+00	1.844936e+00
6.493794155267896e-03	0.000000e+00	1.834366e+00
6.505311438211259e-03	0.000000e+00	1.813393e+00
6.517030188211258e-03	0.000000e+00	1.792269e+00
6.528748938211258e-03	0.000000e+00	1.771390e+00
6.540467688211257e-03	0.000000e+00	1.750754e+00
6.552186438211257e-03	0.000000e+00	1.730359e+00
6.563905188211257e-03	0.000000e+00	1.710201e+00
6.575623938211256e-03	0.000000e+00	1.690278e+00
6.599061438211255e-03	0.000000e+00	1.651126e+00
6.622498938211254e-03	0.000000e+00	1.612882e+00
6.645936438211254e-03	0.000000e+00	1.575523e+00
6.669373938211253e-03	0.000000e+00	1.539029e+00
6.692811438211252e-03	0.000000e+00	1.503381e+00
6.716248938211251e-03	0.000000e+00	1.468560e+00
6.739686438211250e-03	0.000000e+00	1.434544e+00
6.763123938211249e-03	0.000000e+00	1.401317e+00
6.786561438211249e-03	0.000000e+00	1.368860e+00
6.809998938211248e-03	0.000000e+00	1.337154e+00
6.833436438211247e-03	0.000000e+00	1.306183e+00
6.856873938211246e-03	0.000000e+00	1.275930e+00
6.880311438211245e-03	0.000000e+00	1.246377e+00
6.903748938211244e-03	0.000000e+00	1.217510e+00
6.927186438211243e-03	0.000000e+00	1.189311e+00
6.950623938211243e-03	0.000000e+00	1.161765e+00
6.974061438211242e-03	0.000000e+00	1.134857e+00
6.997498938211241e-03	0.000000e+00	1.108573e+00
7.020936438211240e-03	0.000000e+00	1.082898e+00
7.044373938211239e-03	0.000000e+00	1.057817e+00
7.067811438211238e-03	0.000000e+00	1.033318e+00
7.091248938211238e-03	0.000000e+00	1.009386e+00
7.114686438211237e-03	0.000000e+00	9.860089e-01
7.138123938211236e-03	0.000000e+00	9.631732e-01
7.161561438211235e-03	0.000000e+00	9.408665e-01
7.184998938211234e-03	0.000000e+00	9.190766e-01
7.208436438211233e-03	0.000000e+00	8.977915e-01
7.231873938211232e-03	0.000000e+00	8.769995e-01
7.255311438211232e-03	0.000000e+00	8.566892e-01
7.278748938211231e-03	0.000000e+00	8.368495e-01
7.302186438211230e-03	0.000000e+00	8.174695e-01
7.325623938211229e-03	0.000000e+00	7.985383e-01
7.349061438211228e-03	0.000000e+00	7.800458e-01
7.372498938211227e-03	0.000000e+00	7.619817e-01
7.395936438211227e-03	0.000000e+00	7.443361e-01
7.419373938211226e-03	0.000000e+00	7.270994e-01
7.442811438211225e-03	0.000000e+00	7.102619e-01
7.466248938211224e-03	0.000000e+00	6.938145e-01
7.501405188211223e-03	0.000000e+00	6.698552e-01
7.536561438211221e-03	0.000000e+00	6.467236e-01
7.571717688211220e-03	0.000000e+00	6.243912e-01
7.606873938211219e-03	0.000000e+00	6.028304e-01
7.642030188211218e-03	0.000000e+00	5.820144e-01
7.677186438211216e-03	0.000000e+00	5.619177e-01
7.712342688211215e-03	0.000000e+00	5.425153e-01
7.747498938211214e-03	0.000000e+00	5.237832e-01
7.782655188211213e-03	0.000000e+00	5.056983e-01
7.812789116782641e-03	0.000000e+00	4.907266e-01
7.842923045354071e-03	0.000000e+00	4.761685e-01
7.873056973925501e-03	0.000000e+00	4.620238e-01
7.903190902496931e-03	0.000000e+00	4.482927e-01
7.933324831068359e-03	0.000000e+00	4.349750e-01
7.963458759639788e-03	0.000000e+00	4.220708e-01
7.993592688211218e-03	0.000000e+00	4.095801e-01
8.035445366782648e-03	0.000000e+00	3.928697e-01
8.077298045354078e-03	0.000000e+00	3.767798e-01
8.119150723925508e-03	0.000000e+00	3.613105e-01
8.161003402496939e-03	0.000000e+00	3.464618e-01
8.202856081068369e-03	0.000000e+00	3.322337e-01
8.244708759639799e-03	0.000000e+00	3.186262e-01
8.286561438211229e-03	0.000000e+00	3.056392e-01
8.366918581068375e-03	0.000000e+00	2.823745e-01
8.447275723925521e-03	0.000000e+00	2.606094e-01
8.527632866782667e-03	0.000000e+00	2.403440e-01
8.607990009639813e-03	0.000000e+00	2.215782e-01
8.688347152496959e-03	0.000000e+00	2.043122e-01
8.768704295354104e-03	0.000000e+00	1.885458e-01
8.849061438211250e-03	0.000000e+00	1.742790e-01
8.941137331068397e-03	0.000000e+00	1.592343e-01
9.033213223925543e-03	0.000000e+00	1.452689e-01
9.125289116782689e-03	0.000000e+00	1.323828e-01
9.217365009639836e-03	0.000000e+00	1.205759e-01
9.309440902496982e-03	0.000000e+00	1.098482e-01
9.401516795354128e-03	0.000000e+00	1.001999e-01
9.493592688211275e-03	0.000000e+00	9.163077e-02
9.585668581068421e-03	0.000000e+00	8.373425e-02
9.677744473925567e-03	0.000000e+00	7.640421e-02
9.769820366782714e-03	0.000000e+00	6.964064e-02
9.861896259639860e-03	0.000000e+00	6.344355e-02
9.953972152497007e-03	0.000000e+00	5.781293e-02
1.004604804535415e-02	0.000000e+00	5.274878e-02
1.013812393821130e-02	0.000000e+00	4.825111e-02
1.021011054535416e-02	0.000000e+00	4.495835e-02
1.028209715249702e-02	0.000000e+00	4.185983e-02
1.035408375963988e-02	0.000000e+00	3.895554e-02
1.042607036678274e-02	0.000000e+00	3.624548e-02
1.049805697392560e-02	0.000000e+00	3.372965e-02
1.057004358106846e-02	0.000000e+00	3.140805e-02
1.064203018821132e-02	0.000000e+00	2.928068e-02
1.065374893821132e-02	0.000000e+00	2.894336e-02
1.075084715249704e-02	0.000000e+00	2.634448e-02
1.084794536678275e-02	0.000000e+00	2.393981e-02
1.094504358106847e-02	0.000000e+00	2.172933e-02
1.104214179535419e-02	0.000000e+00	1.971306e-02
1.113924000963991e-02	0.000000e+00	1.789099e-02
1.123633822392563e-02	0.000000e+00	1.626311e-02
1.133343643821134e-02	0.000000e+00	1.482944e-02
1.142551233106849e-02	0.000000e+00	1.357540e-02
1.151758822392564e-02	0.000000e+00	1.241132e-02
1.160966411678278e-02	0.000000e+00	1.133720e-02
1.170174000963993e-02	0.000000e+00	1.035304e-02
1.179381590249708e-02	0.000000e+00	9.458842e-03
1.188589179535422e-02	0.000000e+00	8.654607e-03
1.197796768821137e-02	0.000000e+00	7.940333e-03
1.198968643821137e-02	0.000000e+00	7.851629e-03
1.200000000000000e-02	0.000000e+00	7.774219e-03
